vds,vgs,gds,id,fug,vgt,gm,gmoverid
0.1,0.1,5.535e-11,1.53e-11,1553000.0,-0.5051,4.53e-10,29.61
0.1,0.2,1.031e-09,2.88e-10,28760000.0,-0.4051,8.319e-09,28.89
0.1,0.3,1.597e-08,4.647e-09,410600000.0,-0.3051,1.221e-07,26.26
0.1,0.4,1.552e-07,4.956e-08,3058000000.0,-0.2051,1.03e-06,20.78
0.1,0.5,9.251e-07,3.092e-07,12110000000.0,-0.1051,5.058e-06,16.36
0.1,0.6,4.744e-06,1.377e-06,36230000000.0,-0.00511,1.843e-05,13.39
0.1,0.7000000000000001,2.174e-05,4.226e-06,65370000000.0,0.09489,3.767e-05,8.915
0.1,0.8,5.666e-05,8.447e-06,71940000000.0,0.1948,4.454e-05,5.273
0.1,0.9,9.644e-05,1.283e-05,65460000000.0,0.2948,4.234e-05,3.299
0.1,1.0,0.0001342,1.683e-05,56280000000.0,0.3948,3.74e-05,2.223
0.1,1.1,0.000168,2.03e-05,47600000000.0,0.4948,3.215e-05,1.583
0.1,1.2,0.0001975,2.327e-05,39970000000.0,0.5948,2.725e-05,1.171
0.2,0.1,5.295e-11,2.065e-11,2103000.0,-0.4999,6.11e-10,29.6
0.2,0.2,9.817e-10,3.873e-10,38670000.0,-0.3999,1.116e-08,28.82
0.2,0.3,1.491e-08,6.169e-09,539200000.0,-0.2999,1.607e-07,26.05
0.2,0.4,1.386e-07,6.395e-08,3856000000.0,-0.1999,1.31e-06,20.48
0.2,0.5,7.713e-07,3.911e-07,15080000000.0,-0.09985,6.359e-06,16.26
0.2,0.6,3.224e-06,1.74e-06,46060000000.0,0.0001461,2.35e-05,13.5
0.2,0.7000000000000001,9.724e-06,5.559e-06,93510000000.0,0.1001,5.347e-05,9.62
0.2,0.8,2.293e-05,1.211e-05,123000000000.0,0.2001,7.459e-05,6.157
0.2,0.9,4.738e-05,1.985e-05,124100000000.0,0.3001,7.759e-05,3.909
0.2,1.0,7.832e-05,2.733e-05,111800000000.0,0.4,7.134e-05,2.61
0.2,1.1,0.000109,3.405e-05,97050000000.0,0.5,6.292e-05,1.848
0.2,1.2,0.0001373,3.992e-05,82870000000.0,0.6,5.452e-05,1.366
0.3,0.1,5.084e-11,2.586e-11,2644000.0,-0.496,7.649e-10,29.58
0.3,0.2,9.4e-10,4.838e-10,48370000.0,-0.396,1.392e-08,28.77
0.3,0.3,1.414e-08,7.626e-09,661800000.0,-0.296,1.973e-07,25.88
0.3,0.4,1.291e-07,7.736e-08,4585000000.0,-0.196,1.567e-06,20.26
0.3,0.5,7.062e-07,4.65e-07,17660000000.0,-0.09598,7.504e-06,16.14
0.3,0.6,2.867e-06,2.044e-06,53300000000.0,0.004021,2.732e-05,13.36
0.3,0.7000000000000001,8.126e-06,6.442e-06,107100000000.0,0.104,6.13e-05,9.515
0.3,0.8,1.646e-05,1.4e-05,144200000000.0,0.204,8.723e-05,6.229
0.3,0.9,2.765e-05,2.336e-05,156900000000.0,0.3039,9.756e-05,4.177
0.3,1.0,4.312e-05,3.316e-05,153900000000.0,0.4039,9.71e-05,2.928
0.3,1.1,6.42e-05,4.256e-05,141600000000.0,0.5038,9.014e-05,2.118
0.3,1.2,8.831e-05,5.11e-05,125500000000.0,0.6038,8.046e-05,1.575
0.4,0.1,4.689e-11,3.077e-11,3154000.0,-0.4932,9.095e-10,29.58
0.4,0.2,8.657e-10,5.742e-10,57550000.0,-0.3932,1.65e-08,28.73
0.4,0.3,1.295e-08,8.982e-09,776800000.0,-0.2932,2.313e-07,25.75
0.4,0.4,1.173e-07,8.969e-08,5254000000.0,-0.1932,1.802e-06,20.09
0.4,0.5,6.357e-07,5.321e-07,19970000000.0,-0.09321,8.533e-06,16.04
0.4,0.6,2.533e-06,2.314e-06,59540000000.0,0.006795,3.063e-05,13.24
0.4,0.7000000000000001,6.99e-06,7.196e-06,117900000000.0,0.1068,6.76e-05,9.394
0.4,0.8,1.368e-05,1.55e-05,158100000000.0,0.2067,9.57e-05,6.173
0.4,0.9,2.178e-05,2.58e-05,173900000000.0,0.3067,0.000108,4.186
0.4,1.0,3.115e-05,3.678e-05,175500000000.0,0.4067,0.0001104,3.002
0.4,1.1,4.228e-05,4.77e-05,169400000000.0,0.5066,0.0001074,2.251
0.4,1.2,5.609e-05,5.814e-05,158300000000.0,0.6066,0.0001008,1.734
0.5,0.1,4.23e-11,3.525e-11,3621000.0,-0.4913,1.041e-09,29.57
0.5,0.2,7.805e-10,6.566e-10,65950000.0,-0.3913,1.885e-08,28.71
0.5,0.3,1.166e-08,1.021e-08,882000000.0,-0.2913,2.621e-07,25.66
0.5,0.4,1.053e-07,1.008e-07,5866000000.0,-0.1913,2.014e-06,19.97
0.5,0.5,5.679e-07,5.922e-07,22060000000.0,-0.09125,9.448e-06,15.95
0.5,0.6,2.23e-06,2.552e-06,64980000000.0,0.008747,3.35e-05,13.13
0.5,0.7000000000000001,6.048e-06,7.847e-06,127000000000.0,0.1087,7.289e-05,9.289
0.5,0.8,1.161e-05,1.676e-05,169300000000.0,0.2087,0.0001024,6.111
0.5,0.9,1.807e-05,2.778e-05,186200000000.0,0.3086,0.0001156,4.163
0.5,1.0,2.51e-05,3.957e-05,189200000000.0,0.4086,0.000119,3.007
0.5,1.1,3.281e-05,5.141e-05,185200000000.0,0.5086,0.0001173,2.281
0.5,1.2,4.147e-05,6.293e-05,177300000000.0,0.6085,0.0001127,1.791
0.6,0.1,3.792e-11,3.929e-11,4041000.0,-0.4899,1.16e-09,29.57
0.6,0.2,6.997e-10,7.305e-10,73510000.0,-0.3899,2.095e-08,28.69
0.6,0.3,1.046e-08,1.132e-08,977000000.0,-0.2899,2.897e-07,25.6
0.6,0.4,9.46e-08,1.108e-07,6423000000.0,-0.1899,2.203e-06,19.89
0.6,0.5,5.084e-07,6.459e-07,23940000000.0,-0.08988,1.026e-05,15.88
0.6,0.6,1.974e-06,2.761e-06,69800000000.0,0.01012,3.6e-05,13.04
0.6,0.7000000000000001,5.282e-06,8.412e-06,134800000000.0,0.1101,7.74e-05,9.201
0.6,0.8,1.001e-05,1.784e-05,178500000000.0,0.2101,0.000108,6.056
0.6,0.9,1.535e-05,2.944e-05,196000000000.0,0.31,0.0001217,4.134
0.6,1.0,2.097e-05,4.186e-05,199500000000.0,0.41,0.0001255,2.997
0.6,1.1,2.687e-05,5.437e-05,196400000000.0,0.5099,0.0001243,2.286
0.6,1.2,3.32e-05,6.663e-05,189700000000.0,0.6099,0.0001205,1.808
0.7000000000000001,0.1,3.415e-11,4.293e-11,4419000.0,-0.4889,1.266e-09,29.56
0.7000000000000001,0.2,6.304e-10,7.969e-10,80310000.0,-0.3889,2.285e-08,28.67
0.7000000000000001,0.3,9.433e-09,1.231e-08,1063000000.0,-0.2889,3.145e-07,25.55
0.7000000000000001,0.4,8.558e-08,1.198e-07,6928000000.0,-0.1889,2.374e-06,19.82
0.7000000000000001,0.5,4.588e-07,6.942e-07,25650000000.0,-0.08891,1.099e-05,15.83
0.7000000000000001,0.6,1.763e-06,2.948e-06,74110000000.0,0.01109,3.82e-05,12.96
0.7000000000000001,0.7000000000000001,4.671e-06,8.908e-06,141700000000.0,0.1111,8.131e-05,9.127
0.7000000000000001,0.8,8.769e-06,1.878e-05,186400000000.0,0.211,0.0001128,6.007
0.7000000000000001,0.9,1.33e-05,3.087e-05,204200000000.0,0.311,0.0001267,4.105
0.7000000000000001,1.0,1.794e-05,4.38e-05,207800000000.0,0.4109,0.0001306,2.983
0.7000000000000001,1.1,2.269e-05,5.684e-05,205000000000.0,0.5109,0.0001297,2.282
0.7000000000000001,1.2,2.764e-05,6.965e-05,198800000000.0,0.6108,0.0001263,1.813
0.8,0.1,3.108e-11,4.624e-11,4762000.0,-0.4882,1.362e-09,29.56
0.8,0.2,5.739e-10,8.571e-10,86470000.0,-0.3882,2.456e-08,28.66
0.8,0.3,8.601e-09,1.321e-08,1140000000.0,-0.2882,3.371e-07,25.52
0.8,0.4,7.825e-08,1.28e-07,7388000000.0,-0.1882,2.53e-06,19.77
0.8,0.5,4.185e-07,7.38e-07,27200000000.0,-0.08821,1.164e-05,15.78
0.8,0.6,1.595e-06,3.115e-06,78010000000.0,0.01179,4.016e-05,12.89
0.8,0.7000000000000001,4.186e-06,9.35e-06,147900000000.0,0.1118,8.475e-05,9.063
0.8,0.8,7.793e-06,1.96e-05,193400000000.0,0.2117,0.0001169,5.963
0.8,0.9,1.171e-05,3.212e-05,211200000000.0,0.3117,0.000131,4.079
0.8,1.0,1.566e-05,4.547e-05,214700000000.0,0.4116,0.0001349,2.967
0.8,1.1,1.96e-05,5.895e-05,211900000000.0,0.5116,0.0001341,2.274
0.8,1.2,2.363e-05,7.221e-05,206100000000.0,0.6115,0.0001308,1.812
0.9,0.1,2.864e-11,4.929e-11,5075000.0,-0.4877,1.45e-09,29.56
0.9,0.2,5.291e-10,9.122e-10,92130000.0,-0.3877,2.613e-08,28.65
0.9,0.3,7.94e-09,1.404e-08,1212000000.0,-0.2877,3.577e-07,25.49
0.9,0.4,7.237e-08,1.355e-07,7812000000.0,-0.1877,2.673e-06,19.73
0.9,0.5,3.861e-07,7.781e-07,28620000000.0,-0.08768,1.224e-05,15.73
0.9,0.6,1.459e-06,3.268e-06,81540000000.0,0.01232,4.193e-05,12.83
0.9,0.7000000000000001,3.798e-06,9.749e-06,153500000000.0,0.1123,8.781e-05,9.008
0.9,0.8,7.019e-06,2.034e-05,199700000000.0,0.2122,0.0001205,5.925
0.9,0.9,1.047e-05,3.322e-05,217400000000.0,0.3122,0.0001347,4.054
0.9,1.0,1.389e-05,4.694e-05,220700000000.0,0.4121,0.0001386,2.952
0.9,1.1,1.725e-05,6.079e-05,217800000000.0,0.5121,0.0001377,2.266
0.9,1.2,2.063e-05,7.441e-05,212000000000.0,0.612,0.0001346,1.808
1.0,0.1,2.673e-11,5.216e-11,5366000.0,-0.4873,1.532e-09,29.56
1.0,0.2,4.939e-10,9.634e-10,97370000.0,-0.3873,2.759e-08,28.65
1.0,0.3,7.416e-09,1.48e-08,1278000000.0,-0.2873,3.77e-07,25.47
1.0,0.4,6.765e-08,1.425e-07,8205000000.0,-0.1873,2.807e-06,19.7
1.0,0.5,3.599e-07,8.154e-07,29930000000.0,-0.08727,1.28e-05,15.69
1.0,0.6,1.35e-06,3.408e-06,84760000000.0,0.01273,4.355e-05,12.78
1.0,0.7000000000000001,3.486e-06,1.011e-05,158600000000.0,0.1127,9.059e-05,8.958
1.0,0.8,6.396e-06,2.101e-05,205500000000.0,0.2127,0.0001238,5.89
1.0,0.9,9.477e-06,3.422e-05,223000000000.0,0.3126,0.0001379,4.031
1.0,1.0,1.249e-05,4.826e-05,226000000000.0,0.4126,0.0001417,2.937
1.0,1.1,1.541e-05,6.242e-05,222800000000.0,0.5125,0.0001408,2.256
1.0,1.2,1.831e-05,7.636e-05,217000000000.0,0.6124,0.0001377,1.804
1.1,0.1,2.522e-11,5.489e-11,5640000.0,-0.4869,1.608e-09,29.56
1.1,0.2,4.661e-10,1.011e-09,102300000.0,-0.3869,2.896e-08,28.64
1.1,0.3,7.001e-09,1.552e-08,1341000000.0,-0.2869,3.95e-07,25.45
1.1,0.4,6.384e-08,1.491e-07,8575000000.0,-0.1869,2.932e-06,19.67
1.1,0.5,3.385e-07,8.503e-07,31150000000.0,-0.08693,1.331e-05,15.66
1.1,0.6,1.261e-06,3.538e-06,87730000000.0,0.01307,4.504e-05,12.73
1.1,0.7000000000000001,3.231e-06,1.045e-05,163200000000.0,0.113,9.312e-05,8.913
1.1,0.8,5.887e-06,2.163e-05,210600000000.0,0.213,0.0001267,5.858
1.1,0.9,8.668e-06,3.513e-05,228100000000.0,0.3129,0.0001408,4.009
1.1,1.0,1.136e-05,4.945e-05,230800000000.0,0.4129,0.0001445,2.923
1.1,1.1,1.394e-05,6.388e-05,227400000000.0,0.5128,0.0001436,2.247
1.1,1.2,1.647e-05,7.809e-05,221400000000.0,0.6128,0.0001404,1.798
1.2,0.1,2.403e-11,5.754e-11,5899000.0,-0.4866,1.681e-09,29.55
1.2,0.2,4.44e-10,1.057e-09,107000000.0,-0.3866,3.025e-08,28.64
1.2,0.3,6.666e-09,1.621e-08,1400000000.0,-0.2866,4.122e-07,25.43
1.2,0.4,6.072e-08,1.553e-07,8924000000.0,-0.1866,3.05e-06,19.64
1.2,0.5,3.207e-07,8.832e-07,32300000000.0,-0.08663,1.38e-05,15.62
1.2,0.6,1.187e-06,3.66e-06,90480000000.0,0.01337,4.643e-05,12.68
1.2,0.7000000000000001,3.018e-06,1.076e-05,167400000000.0,0.1133,9.545e-05,8.871
1.2,0.8,5.464e-06,2.219e-05,215300000000.0,0.2133,0.0001293,5.828
1.2,0.9,7.999e-06,3.596e-05,232700000000.0,0.3132,0.0001434,3.989
1.2,1.0,1.042e-05,5.054e-05,235300000000.0,0.4132,0.000147,2.909
1.2,1.1,1.273e-05,6.521e-05,231600000000.0,0.5131,0.000146,2.238
1.2,1.2,1.498e-05,7.966e-05,225500000000.0,0.613,0.0001428,1.793
