l,w,gds,id,fug,vgt,gm,gmoverid,vgs,vds,cgg,vth,vbs,cgs
9.000000000000001e-08,1.2000000000000002e-07,6.055e-11,1.976e-11,1829000.0,-0.4083,6.388e-10,32.32,0.1,0.1,5.557e-17,0.5083,0.0,-1.8e-17
9.000000000000001e-08,2.4000000000000003e-07,7.35e-11,2.335e-11,1080000.0,-0.4264,7.565e-10,32.4,0.1,0.1,1.115e-16,0.5264,0.0,-3.587e-17
9.000000000000001e-08,4.800000000000001e-07,9.734e-11,3.066e-11,708000.0,-0.4405,9.948e-10,32.45,0.1,0.1,2.236e-16,0.5405,0.0,-7.166e-17
9.000000000000001e-08,1e-06,1.474e-10,4.631e-11,512300.0,-0.4494,1.502e-09,32.44,0.1,0.1,4.668e-16,0.5494,0.0,-1.493e-16
9.000000000000001e-08,1.2000000000000002e-07,1.439e-09,4.782e-10,41840000.0,-0.3083,1.488e-08,31.11,0.2,0.1,5.658e-17,0.5083,0.0,-2.052e-17
9.000000000000001e-08,2.4000000000000003e-07,1.783e-09,5.739e-10,25660000.0,-0.3264,1.804e-08,31.43,0.2,0.1,1.119e-16,0.5264,0.0,-3.915e-17
9.000000000000001e-08,4.800000000000001e-07,2.388e-09,7.601e-10,17190000.0,-0.3405,2.402e-08,31.6,0.2,0.1,2.224e-16,0.5405,0.0,-7.608e-17
9.000000000000001e-08,1e-06,3.63e-09,1.151e-09,12550000.0,-0.3494,3.644e-08,31.67,0.2,0.1,4.622e-16,0.5494,0.0,-1.563e-16
9.000000000000001e-08,1.2000000000000002e-07,2.54e-08,9.042e-09,578600000.0,-0.2083,2.441e-07,27.0,0.3,0.1,6.715e-17,0.5083,0.0,-3.4e-17
9.000000000000001e-08,2.4000000000000003e-07,3.402e-08,1.158e-08,403600000.0,-0.2264,3.245e-07,28.03,0.3,0.1,1.279e-16,0.5264,0.0,-6.074e-17
9.000000000000001e-08,4.800000000000001e-07,4.761e-08,1.589e-08,292500000.0,-0.2405,4.55e-07,28.63,0.3,0.1,2.476e-16,0.5405,0.0,-1.113e-16
9.000000000000001e-08,1e-06,7.433e-08,2.457e-08,224000000.0,-0.2494,7.132e-07,29.02,0.3,0.1,5.066e-16,0.5494,0.0,-2.204e-16
9.000000000000001e-08,1.2000000000000002e-07,2.479e-07,9.691e-08,3405000000.0,-0.1083,1.994e-06,20.58,0.4,0.1,9.319e-17,0.5083,0.0,-6.501e-17
9.000000000000001e-08,2.4000000000000003e-07,3.691e-07,1.392e-07,2738000000.0,-0.1264,3.005e-06,21.59,0.4,0.1,1.747e-16,0.5264,0.0,-1.181e-16
9.000000000000001e-08,4.800000000000001e-07,5.549e-07,2.057e-07,2200000000.0,-0.1405,4.588e-06,22.31,0.4,0.1,3.32e-16,0.5405,0.0,-2.164e-16
9.000000000000001e-08,1e-06,9.171e-07,3.36e-07,1828000000.0,-0.1494,7.696e-06,22.9,0.4,0.1,6.699e-16,0.5494,0.0,-4.252e-16
9.000000000000001e-08,1.2000000000000002e-07,1.778e-06,5.971e-07,12180000000.0,-0.008347,9.482e-06,15.88,0.5,0.1,1.239e-16,0.5083,0.0,-9.952e-17
9.000000000000001e-08,2.4000000000000003e-07,2.641e-06,9.305e-07,10440000000.0,-0.02636,1.552e-05,16.68,0.5,0.1,2.367e-16,0.5264,0.0,-1.905e-16
9.000000000000001e-08,4.800000000000001e-07,4.009e-06,1.455e-06,8754000000.0,-0.04048,2.506e-05,17.22,0.5,0.1,4.556e-16,0.5405,0.0,-3.635e-16
9.000000000000001e-08,1e-06,6.763e-06,2.493e-06,7556000000.0,-0.04936,4.392e-05,17.61,0.5,0.1,9.251e-16,0.5494,0.0,-7.309e-16
9.000000000000001e-08,1.2000000000000002e-07,1.141e-05,2.201e-06,24100000000.0,0.09165,2.22e-05,10.09,0.6,0.1,1.466e-16,0.5083,0.0,-1.201e-16
9.000000000000001e-08,2.4000000000000003e-07,1.777e-05,3.779e-06,23340000000.0,0.07364,4.189e-05,11.08,0.6,0.1,2.856e-16,0.5264,0.0,-2.392e-16
9.000000000000001e-08,4.800000000000001e-07,2.748e-05,6.347e-06,21540000000.0,0.05952,7.558e-05,11.91,0.6,0.1,5.585e-16,0.5405,0.0,-4.714e-16
9.000000000000001e-08,1e-06,4.682e-05,1.141e-05,19750000000.0,0.05064,0.0001422,12.47,0.6,0.1,1.146e-15,0.5494,0.0,-9.679e-16
9.000000000000001e-08,1.2000000000000002e-07,3.316e-05,4.752e-06,27040000000.0,0.1917,2.747e-05,5.782,0.7,0.1,1.617e-16,0.5083,0.0,-1.253e-16
9.000000000000001e-08,2.4000000000000003e-07,5.92e-05,8.796e-06,27660000000.0,0.1736,5.527e-05,6.283,0.7,0.1,3.18e-16,0.5264,0.0,-2.553e-16
9.000000000000001e-08,4.800000000000001e-07,0.0001031,1.58e-05,27110000000.0,0.1595,0.0001069,6.763,0.7,0.1,6.273e-16,0.5405,0.0,-5.127e-16
9.000000000000001e-08,1e-06,0.0001903,2.98e-05,26080000000.0,0.1506,0.0002122,7.12,0.7,0.1,1.295e-15,0.5494,0.0,-1.066e-15
9.000000000000001e-08,1.2000000000000002e-07,5.854e-05,7.497e-06,25030000000.0,0.2916,2.693e-05,3.592,0.8,0.1,1.713e-16,0.5084,0.0,-1.224e-16
9.000000000000001e-08,2.4000000000000003e-07,0.0001103,1.435e-05,25560000000.0,0.2736,5.444e-05,3.795,0.8,0.1,3.39e-16,0.5264,0.0,-2.518e-16
9.000000000000001e-08,4.800000000000001e-07,0.0002024,2.664e-05,25300000000.0,0.2595,0.0001069,4.011,0.8,0.1,6.722e-16,0.5405,0.0,-5.098e-16
9.000000000000001e-08,1e-06,0.0003886,5.151e-05,24600000000.0,0.2506,0.0002152,4.177,0.8,0.1,1.392e-15,0.5494,0.0,-1.066e-15
9.000000000000001e-08,1.2000000000000002e-07,8.311e-05,1.007e-05,22030000000.0,0.3916,2.447e-05,2.429,0.9,0.1,1.768e-16,0.5084,0.0,-1.181e-16
9.000000000000001e-08,2.4000000000000003e-07,0.0001598,1.953e-05,22150000000.0,0.3736,4.889e-05,2.503,0.9,0.1,3.513e-16,0.5264,0.0,-2.435e-16
9.000000000000001e-08,4.800000000000001e-07,0.0002996,3.682e-05,21820000000.0,0.3595,9.585e-05,2.603,0.9,0.1,6.99e-16,0.5405,0.0,-4.938e-16
9.000000000000001e-08,1e-06,0.0005844,7.202e-05,21160000000.0,0.3506,0.0001929,2.678,0.9,0.1,1.451e-15,0.5494,0.0,-1.034e-15
9.000000000000001e-08,1.2000000000000002e-07,0.0001055,1.237e-05,18980000000.0,0.4916,2.145e-05,1.734,1.0,0.1,1.799e-16,0.5084,0.0,-1.144e-16
9.000000000000001e-08,2.4000000000000003e-07,0.0002044,2.409e-05,18750000000.0,0.4736,4.219e-05,1.751,1.0,0.1,3.582e-16,0.5264,0.0,-2.36e-16
9.000000000000001e-08,4.800000000000001e-07,0.000387,4.573e-05,18340000000.0,0.4595,8.228e-05,1.799,1.0,0.1,7.14e-16,0.5405,0.0,-4.785e-16
9.000000000000001e-08,1e-06,0.0007602,8.99e-05,17640000000.0,0.4506,0.0001645,1.83,1.0,0.1,1.484e-15,0.5494,0.0,-1.002e-15
9.000000000000001e-08,1.2000000000000002e-07,0.0001252,1.436e-05,16080000000.0,0.5916,1.835e-05,1.278,1.1,0.1,1.816e-16,0.5084,0.0,-1.115e-16
9.000000000000001e-08,2.4000000000000003e-07,0.0002433,2.797e-05,15610000000.0,0.5736,3.552e-05,1.27,1.1,0.1,3.621e-16,0.5264,0.0,-2.301e-16
9.000000000000001e-08,4.800000000000001e-07,0.0004628,5.328e-05,15170000000.0,0.5594,6.885e-05,1.292,1.1,0.1,7.226e-16,0.5406,0.0,-4.664e-16
9.000000000000001e-08,1e-06,0.0009113,0.0001049,14430000000.0,0.5506,0.0001362,1.298,1.1,0.1,1.503e-15,0.5494,0.0,-9.765e-16
9.000000000000001e-08,1.2000000000000002e-07,0.0001423,1.605e-05,13410000000.0,0.6916,1.539e-05,0.9588,1.2,0.1,1.827e-16,0.5084,0.0,-1.093e-16
9.000000000000001e-08,2.4000000000000003e-07,0.0002763,3.121e-05,12800000000.0,0.6736,2.931e-05,0.9391,1.2,0.1,3.645e-16,0.5264,0.0,-2.255e-16
9.000000000000001e-08,4.800000000000001e-07,0.0005269,5.954e-05,12350000000.0,0.6594,5.647e-05,0.9485,1.2,0.1,7.276e-16,0.5406,0.0,-4.57e-16
9.000000000000001e-08,1e-06,0.001038,0.0001172,11590000000.0,0.6506,0.0001102,0.9404,1.2,0.1,1.514e-15,0.5494,0.0,-9.567e-16
9.000000000000001e-08,1.2000000000000002e-07,5.463e-11,2.54e-11,2357000.0,-0.4037,8.205e-10,32.3,0.1,0.2,5.541e-17,0.5037,0.0,-1.802e-17
9.000000000000001e-08,2.4000000000000003e-07,6.725e-11,3.025e-11,1403000.0,-0.4217,9.796e-10,32.39,0.1,0.2,1.111e-16,0.5217,0.0,-3.589e-17
9.000000000000001e-08,4.800000000000001e-07,8.959e-11,3.983e-11,922300.0,-0.4358,1.292e-09,32.44,0.1,0.2,2.229e-16,0.5358,0.0,-7.167e-17
9.000000000000001e-08,1e-06,1.364e-10,6.024e-11,668100.0,-0.4447,1.953e-09,32.43,0.1,0.2,4.653e-16,0.5447,0.0,-1.493e-16
9.000000000000001e-08,1.2000000000000002e-07,1.289e-09,6.116e-10,53260000.0,-0.3037,1.897e-08,31.02,0.2,0.2,5.669e-17,0.5037,0.0,-2.077e-17
9.000000000000001e-08,2.4000000000000003e-07,1.623e-09,7.407e-10,33020000.0,-0.3217,2.322e-08,31.35,0.2,0.2,1.119e-16,0.5217,0.0,-3.953e-17
9.000000000000001e-08,4.800000000000001e-07,2.188e-09,9.844e-10,22220000.0,-0.3358,3.104e-08,31.54,0.2,0.2,2.224e-16,0.5358,0.0,-7.666e-17
9.000000000000001e-08,1e-06,3.344e-09,1.492e-09,16260000.0,-0.3447,4.719e-08,31.62,0.2,0.2,4.621e-16,0.5447,0.0,-1.573e-16
9.000000000000001e-08,1.2000000000000002e-07,2.205e-08,1.135e-08,711200000.0,-0.2037,3.033e-07,26.72,0.3,0.2,6.788e-17,0.5037,0.0,-3.489e-17
9.000000000000001e-08,2.4000000000000003e-07,3.021e-08,1.471e-08,503500000.0,-0.2217,4.086e-07,27.78,0.3,0.2,1.292e-16,0.5217,0.0,-6.231e-17
9.000000000000001e-08,4.800000000000001e-07,4.271e-08,2.031e-08,367600000.0,-0.2358,5.767e-07,28.4,0.3,0.2,2.497e-16,0.5358,0.0,-1.141e-16
9.000000000000001e-08,1e-06,6.724e-08,3.15e-08,282900000.0,-0.2447,9.075e-07,28.81,0.3,0.2,5.105e-16,0.5447,0.0,-2.255e-16
9.000000000000001e-08,1.2000000000000002e-07,1.983e-07,1.182e-07,4067000000.0,-0.1037,2.407e-06,20.35,0.4,0.2,9.42e-17,0.5037,0.0,-6.635e-17
9.000000000000001e-08,2.4000000000000003e-07,3.06e-07,1.717e-07,3296000000.0,-0.1217,3.662e-06,21.32,0.4,0.2,1.768e-16,0.5217,0.0,-1.208e-16
9.000000000000001e-08,4.800000000000001e-07,4.686e-07,2.552e-07,2659000000.0,-0.1358,5.617e-06,22.01,0.4,0.2,3.362e-16,0.5358,0.0,-2.217e-16
9.000000000000001e-08,1e-06,7.845e-07,4.185e-07,2217000000.0,-0.1447,9.454e-06,22.59,0.4,0.2,6.787e-16,0.5447,0.0,-4.36e-16
9.000000000000001e-08,1.2000000000000002e-07,1.072e-06,7.229e-07,14890000000.0,-0.003743,1.157e-05,16.0,0.5,0.2,1.237e-16,0.5037,0.0,-1.009e-16
9.000000000000001e-08,2.4000000000000003e-07,1.77e-06,1.131e-06,12670000000.0,-0.02169,1.887e-05,16.69,0.5,0.2,2.371e-16,0.5217,0.0,-1.932e-16
9.000000000000001e-08,4.800000000000001e-07,2.844e-06,1.772e-06,10580000000.0,-0.03581,3.041e-05,17.16,0.5,0.2,4.572e-16,0.5358,0.0,-3.689e-16
9.000000000000001e-08,1e-06,4.948e-06,3.038e-06,9114000000.0,-0.04469,5.324e-05,17.52,0.5,0.2,9.296e-16,0.5447,0.0,-7.421e-16
9.000000000000001e-08,1.2000000000000002e-07,3.9e-06,2.824e-06,35000000000.0,0.09626,3.153e-05,11.17,0.6,0.2,1.434e-16,0.5037,0.0,-1.234e-16
9.000000000000001e-08,2.4000000000000003e-07,6.765e-06,4.771e-06,32370000000.0,0.07831,5.706e-05,11.96,0.6,0.2,2.806e-16,0.5217,0.0,-2.444e-16
9.000000000000001e-08,4.800000000000001e-07,1.139e-05,7.925e-06,28910000000.0,0.06419,0.0001,12.62,0.6,0.2,5.506e-16,0.5358,0.0,-4.802e-16
9.000000000000001e-08,1e-06,2.046e-05,1.415e-05,26020000000.0,0.05531,0.0001851,13.08,0.6,0.2,1.132e-15,0.5447,0.0,-9.841e-16
9.000000000000001e-08,1.2000000000000002e-07,1.206e-05,6.888e-06,49180000000.0,0.1962,4.761e-05,6.912,0.7,0.2,1.541e-16,0.5038,0.0,-1.341e-16
9.000000000000001e-08,2.4000000000000003e-07,2.043e-05,1.247e-05,48730000000.0,0.1783,9.324e-05,7.477,0.7,0.2,3.045e-16,0.5217,0.0,-2.701e-16
9.000000000000001e-08,4.800000000000001e-07,3.441e-05,2.201e-05,46450000000.0,0.1642,0.000176,7.995,0.7,0.2,6.03e-16,0.5358,0.0,-5.385e-16
9.000000000000001e-08,1e-06,6.243e-05,4.105e-05,43840000000.0,0.1553,0.0003437,8.372,0.7,0.2,1.248e-15,0.5447,0.0,-1.114e-15
9.000000000000001e-08,1.2000000000000002e-07,3.008e-05,1.187e-05,49910000000.0,0.2962,5.038e-05,4.243,0.8,0.2,1.607e-16,0.5038,0.0,-1.376e-16
9.000000000000001e-08,2.4000000000000003e-07,5.371e-05,2.242e-05,50700000000.0,0.2783,0.0001015,4.527,0.8,0.2,3.186e-16,0.5217,0.0,-2.798e-16
9.000000000000001e-08,4.800000000000001e-07,9.424e-05,4.119e-05,49870000000.0,0.2641,0.0001983,4.814,0.8,0.2,6.329e-16,0.5359,0.0,-5.619e-16
9.000000000000001e-08,1e-06,0.0001758,7.915e-05,48250000000.0,0.2553,0.000398,5.028,0.8,0.2,1.313e-15,0.5447,0.0,-1.167e-15
9.000000000000001e-08,1.2000000000000002e-07,5.16e-05,1.677e-05,45120000000.0,0.3962,4.709e-05,2.808,0.9,0.2,1.661e-16,0.5038,0.0,-1.363e-16
9.000000000000001e-08,2.4000000000000003e-07,9.663e-05,3.227e-05,45560000000.0,0.3782,9.436e-05,2.924,0.9,0.2,3.297e-16,0.5218,0.0,-2.791e-16
9.000000000000001e-08,4.800000000000001e-07,0.0001774,6.051e-05,44950000000.0,0.3641,0.0001851,3.059,0.9,0.2,6.554e-16,0.5359,0.0,-5.636e-16
9.000000000000001e-08,1e-06,0.0003418,0.000118,43610000000.0,0.3552,0.0003727,3.158,0.9,0.2,1.36e-15,0.5448,0.0,-1.174e-15
9.000000000000001e-08,1.2000000000000002e-07,7.25e-05,2.124e-05,39180000000.0,0.4962,4.21e-05,1.982,1.0,0.2,1.71e-16,0.5038,0.0,-1.321e-16
9.000000000000001e-08,2.4000000000000003e-07,0.0001385,4.117e-05,39010000000.0,0.4782,8.328e-05,2.023,1.0,0.2,3.397e-16,0.5218,0.0,-2.718e-16
9.000000000000001e-08,4.800000000000001e-07,0.0002596,7.793e-05,38330000000.0,0.4641,0.0001627,2.088,1.0,0.2,6.759e-16,0.5359,0.0,-5.507e-16
9.000000000000001e-08,1e-06,0.0005073,0.000153,36980000000.0,0.4552,0.0003261,2.131,1.0,0.2,1.403e-15,0.5448,0.0,-1.15e-15
9.000000000000001e-08,1.2000000000000002e-07,9.169e-05,2.518e-05,33360000000.0,0.5962,3.667e-05,1.457,1.1,0.2,1.749e-16,0.5038,0.0,-1.27e-16
9.000000000000001e-08,2.4000000000000003e-07,0.0001767,4.891e-05,32710000000.0,0.5782,7.152e-05,1.462,1.1,0.2,3.48e-16,0.5218,0.0,-2.619e-16
9.000000000000001e-08,4.800000000000001e-07,0.0003342,9.302e-05,31930000000.0,0.5641,0.000139,1.495,1.1,0.2,6.93e-16,0.5359,0.0,-5.313e-16
9.000000000000001e-08,1e-06,0.0006571,0.0001831,30520000000.0,0.5552,0.0002761,1.508,1.1,0.2,1.44e-15,0.5448,0.0,-1.111e-15
9.000000000000001e-08,1.2000000000000002e-07,0.0001088,2.858e-05,28040000000.0,0.6961,3.131e-05,1.096,1.2,0.2,1.777e-16,0.5039,0.0,-1.223e-16
9.000000000000001e-08,2.4000000000000003e-07,0.0002104,5.549e-05,27070000000.0,0.6782,6.02e-05,1.085,1.2,0.2,3.54e-16,0.5218,0.0,-2.524e-16
9.000000000000001e-08,4.800000000000001e-07,0.0003999,0.0001058,26260000000.0,0.6641,0.0001164,1.101,1.2,0.2,7.056e-16,0.5359,0.0,-5.121e-16
9.000000000000001e-08,1e-06,0.0007878,0.0002083,24790000000.0,0.6552,0.0002285,1.097,1.2,0.2,1.467e-15,0.5448,0.0,-1.071e-15
9.000000000000001e-08,1.2000000000000002e-07,5.123e-11,3.072e-11,2856000.0,-0.4004,9.915e-10,32.29,0.1,0.3,5.524e-17,0.5004,0.0,-1.804e-17
9.000000000000001e-08,2.4000000000000003e-07,6.368e-11,3.683e-11,1712000.0,-0.4183,1.192e-09,32.37,0.1,0.3,1.108e-16,0.5183,0.0,-3.591e-17
9.000000000000001e-08,4.800000000000001e-07,8.522e-11,4.862e-11,1129000.0,-0.4324,1.576e-09,32.43,0.1,0.3,2.222e-16,0.5324,0.0,-7.169e-17
9.000000000000001e-08,1e-06,1.304e-10,7.368e-11,819000.0,-0.4413,2.386e-09,32.42,0.1,0.3,4.637e-16,0.5413,0.0,-1.493e-16
9.000000000000001e-08,1.2000000000000002e-07,1.205e-09,7.366e-10,63980000.0,-0.3004,2.279e-08,30.94,0.2,0.3,5.67e-17,0.5004,0.0,-2.097e-17
9.000000000000001e-08,2.4000000000000003e-07,1.533e-09,8.989e-10,40030000.0,-0.3183,2.813e-08,31.3,0.2,0.3,1.119e-16,0.5183,0.0,-3.983e-17
9.000000000000001e-08,4.800000000000001e-07,2.077e-09,1.198e-09,27040000.0,-0.3324,3.773e-08,31.49,0.2,0.3,2.221e-16,0.5324,0.0,-7.712e-17
9.000000000000001e-08,1e-06,3.193e-09,1.82e-09,19830000.0,-0.3413,5.748e-08,31.58,0.2,0.3,4.613e-16,0.5413,0.0,-1.581e-16
9.000000000000001e-08,1.2000000000000002e-07,2.038e-08,1.348e-08,830900000.0,-0.2004,3.572e-07,26.5,0.3,0.3,6.841e-17,0.5004,0.0,-3.553e-17
9.000000000000001e-08,2.4000000000000003e-07,2.825e-08,1.764e-08,595300000.0,-0.2183,4.865e-07,27.58,0.3,0.3,1.301e-16,0.5183,0.0,-6.346e-17
9.000000000000001e-08,4.800000000000001e-07,4.019e-08,2.446e-08,437500000.0,-0.2324,6.904e-07,28.22,0.3,0.3,2.511e-16,0.5324,0.0,-1.161e-16
9.000000000000001e-08,1e-06,6.369e-08,3.806e-08,338200000.0,-0.2413,1.09e-06,28.65,0.3,0.3,5.131e-16,0.5413,0.0,-2.293e-16
9.000000000000001e-08,1.2000000000000002e-07,1.797e-07,1.371e-07,4622000000.0,-0.1004,2.763e-06,20.14,0.4,0.3,9.512e-17,0.5004,0.0,-6.716e-17
9.000000000000001e-08,2.4000000000000003e-07,2.806e-07,2.011e-07,3777000000.0,-0.1183,4.24e-06,21.09,0.4,0.3,1.787e-16,0.5183,0.0,-1.225e-16
9.000000000000001e-08,4.800000000000001e-07,4.327e-07,3.003e-07,3061000000.0,-0.1324,6.535e-06,21.76,0.4,0.3,3.398e-16,0.5324,0.0,-2.253e-16
9.000000000000001e-08,1e-06,7.298e-07,4.943e-07,2561000000.0,-0.1413,1.104e-05,22.33,0.4,0.3,6.86e-16,0.5413,0.0,-4.432e-16
9.000000000000001e-08,1.2000000000000002e-07,9.38e-07,8.231e-07,16690000000.0,-0.0003922,1.303e-05,15.83,0.5,0.3,1.243e-16,0.5004,0.0,-1.012e-16
9.000000000000001e-08,2.4000000000000003e-07,1.57e-06,1.298e-06,14290000000.0,-0.01829,2.141e-05,16.5,0.5,0.3,2.385e-16,0.5183,0.0,-1.942e-16
9.000000000000001e-08,4.800000000000001e-07,2.547e-06,2.041e-06,11970000000.0,-0.03239,3.464e-05,16.97,0.5,0.3,4.605e-16,0.5324,0.0,-3.711e-16
9.000000000000001e-08,1e-06,4.469e-06,3.509e-06,10330000000.0,-0.04126,6.078e-05,17.32,0.5,0.3,9.366e-16,0.5413,0.0,-7.471e-16
9.000000000000001e-08,1.2000000000000002e-07,3.115e-06,3.168e-06,38990000000.0,0.09961,3.509e-05,11.08,0.6,0.3,1.432e-16,0.5004,0.0,-1.232e-16
9.000000000000001e-08,2.4000000000000003e-07,5.579e-06,5.38e-06,36090000000.0,0.08171,6.363e-05,11.83,0.6,0.3,2.806e-16,0.5183,0.0,-2.442e-16
9.000000000000001e-08,4.800000000000001e-07,9.566e-06,8.962e-06,32250000000.0,0.06761,0.0001117,12.46,0.6,0.3,5.512e-16,0.5324,0.0,-4.8e-16
9.000000000000001e-08,1e-06,1.74e-05,1.603e-05,29040000000.0,0.05874,0.0002069,12.9,0.6,0.3,1.134e-15,0.5413,0.0,-9.839e-16
9.000000000000001e-08,1.2000000000000002e-07,7.11e-06,7.769e-06,57770000000.0,0.1996,5.551e-05,7.145,0.7,0.3,1.529e-16,0.5004,0.0,-1.342e-16
9.000000000000001e-08,2.4000000000000003e-07,1.317e-05,1.404e-05,56250000000.0,0.1817,0.000107,7.62,0.7,0.3,3.027e-16,0.5183,0.0,-2.7e-16
9.000000000000001e-08,4.800000000000001e-07,2.345e-05,2.475e-05,53030000000.0,0.1676,0.0001999,8.079,0.7,0.3,6e-16,0.5324,0.0,-5.381e-16
9.000000000000001e-08,1e-06,4.39e-05,4.611e-05,49750000000.0,0.1587,0.0003883,8.422,0.7,0.3,1.242e-15,0.5413,0.0,-1.112e-15
9.000000000000001e-08,1.2000000000000002e-07,1.4e-05,1.392e-05,66350000000.0,0.2996,6.581e-05,4.727,0.8,0.3,1.579e-16,0.5004,0.0,-1.392e-16
9.000000000000001e-08,2.4000000000000003e-07,2.566e-05,2.607e-05,65880000000.0,0.2817,0.0001299,4.982,0.8,0.3,3.138e-16,0.5183,0.0,-2.821e-16
9.000000000000001e-08,4.800000000000001e-07,4.597e-05,4.76e-05,63650000000.0,0.2676,0.0002497,5.246,0.8,0.3,6.244e-16,0.5324,0.0,-5.655e-16
9.000000000000001e-08,1e-06,8.681e-05,9.109e-05,60930000000.0,0.2587,0.0004962,5.447,0.8,0.3,1.296e-15,0.5413,0.0,-1.173e-15
9.000000000000001e-08,1.2000000000000002e-07,2.674e-05,2.06e-05,65710000000.0,0.3995,6.643e-05,3.224,0.9,0.3,1.609e-16,0.5005,0.0,-1.412e-16
9.000000000000001e-08,2.4000000000000003e-07,4.861e-05,3.933e-05,65770000000.0,0.3816,0.0001324,3.365,0.9,0.3,3.203e-16,0.5184,0.0,-2.873e-16
9.000000000000001e-08,4.800000000000001e-07,8.72e-05,7.33e-05,64350000000.0,0.3675,0.000258,3.52,0.9,0.3,6.382e-16,0.5325,0.0,-5.776e-16
9.000000000000001e-08,1e-06,0.0001656,0.0001425,62130000000.0,0.3587,0.0005177,3.634,0.9,0.3,1.326e-15,0.5413,0.0,-1.2e-15
9.000000000000001e-08,1.2000000000000002e-07,4.406e-05,2.702e-05,59760000000.0,0.4995,6.14e-05,2.272,1.0,0.3,1.635e-16,0.5005,0.0,-1.412e-16
9.000000000000001e-08,2.4000000000000003e-07,8.212e-05,5.21e-05,59540000000.0,0.4816,0.0001218,2.337,1.0,0.3,3.255e-16,0.5184,0.0,-2.882e-16
9.000000000000001e-08,4.800000000000001e-07,0.0001509,9.824e-05,58400000000.0,0.4675,0.000238,2.423,1.0,0.3,6.487e-16,0.5325,0.0,-5.807e-16
9.000000000000001e-08,1e-06,0.0002915,0.0001925,56340000000.0,0.4586,0.0004774,2.479,1.0,0.3,1.349e-15,0.5414,0.0,-1.207e-15
9.000000000000001e-08,1.2000000000000002e-07,6.193e-05,3.283e-05,52180000000.0,0.5995,5.456e-05,1.662,1.1,0.3,1.664e-16,0.5005,0.0,-1.393e-16
9.000000000000001e-08,2.4000000000000003e-07,0.0001176,6.355e-05,51440000000.0,0.5816,0.000107,1.684,1.1,0.3,3.311e-16,0.5184,0.0,-2.853e-16
9.000000000000001e-08,4.800000000000001e-07,0.0002201,0.0001206,50300000000.0,0.5675,0.0002085,1.729,1.1,0.3,6.597e-16,0.5325,0.0,-5.762e-16
9.000000000000001e-08,1e-06,0.0004304,0.0002372,48200000000.0,0.5586,0.0004153,1.75,1.1,0.3,1.371e-15,0.5414,0.0,-1.199e-15
9.000000000000001e-08,1.2000000000000002e-07,7.869e-05,3.792e-05,44470000000.0,0.6995,4.738e-05,1.249,1.2,0.3,1.696e-16,0.5005,0.0,-1.357e-16
9.000000000000001e-08,2.4000000000000003e-07,0.0001508,7.349e-05,43300000000.0,0.6816,9.18e-05,1.249,1.2,0.3,3.374e-16,0.5184,0.0,-2.79e-16
9.000000000000001e-08,4.800000000000001e-07,0.0002851,0.0001399,42160000000.0,0.6675,0.000178,1.272,1.2,0.3,6.721e-16,0.5325,0.0,-5.647e-16
9.000000000000001e-08,1e-06,0.0005604,0.0002755,40000000000.0,0.6586,0.000351,1.274,1.2,0.3,1.397e-15,0.5414,0.0,-1.176e-15
9.000000000000001e-08,1.2000000000000002e-07,4.655e-11,3.562e-11,3320000.0,-0.398,1.149e-09,32.28,0.1,0.4,5.51e-17,0.498,0.0,-1.806e-17
9.000000000000001e-08,2.4000000000000003e-07,5.84e-11,4.297e-11,2002000.0,-0.4159,1.389e-09,32.37,0.1,0.4,1.105e-16,0.5159,0.0,-3.592e-17
